v1	V(n002)	V(n003)
Step Information: Ln=100n Rnw=100n  (Run: 1/60)
0.000000000000000e+000	0.000000e+000	3.300000e+000
3.300000000000000e-003	3.300000e-003	3.299999e+000
6.600000000000001e-003	6.600000e-003	3.299999e+000
9.900000000000001e-003	9.900000e-003	3.299997e+000
1.320000000000000e-002	1.320000e-002	3.299995e+000
1.650000000000000e-002	1.650000e-002	3.299992e+000
1.980000000000000e-002	1.980000e-002	3.299988e+000
2.310000000000000e-002	2.310000e-002	3.299984e+000
2.640000000000000e-002	2.640000e-002	3.299978e+000
2.970000000000000e-002	2.970000e-002	3.299973e+000
3.300000000000000e-002	3.300000e-002	3.299967e+000
3.630000000000000e-002	3.630000e-002	3.299959e+000
3.960000000000000e-002	3.960000e-002	3.299952e+000
4.289999999999999e-002	4.290000e-002	3.299943e+000
4.619999999999999e-002	4.620000e-002	3.299934e+000
4.949999999999999e-002	4.950000e-002	3.299925e+000
5.279999999999999e-002	5.280000e-002	3.299914e+000
5.609999999999998e-002	5.610000e-002	3.299903e+000
5.939999999999998e-002	5.940000e-002	3.299891e+000
6.269999999999998e-002	6.270000e-002	3.299878e+000
6.599999999999998e-002	6.600000e-002	3.299865e+000
6.929999999999997e-002	6.930000e-002	3.299851e+000
7.259999999999997e-002	7.260000e-002	3.299837e+000
7.589999999999997e-002	7.590000e-002	3.299821e+000
7.919999999999997e-002	7.920000e-002	3.299805e+000
8.249999999999996e-002	8.250000e-002	3.299788e+000
8.579999999999996e-002	8.580000e-002	3.299771e+000
8.909999999999996e-002	8.910000e-002	3.299753e+000
9.239999999999995e-002	9.240000e-002	3.299734e+000
9.569999999999995e-002	9.570000e-002	3.299714e+000
9.899999999999995e-002	9.900000e-002	3.299694e+000
1.023000000000000e-001	1.023000e-001	3.299673e+000
1.055999999999999e-001	1.056000e-001	3.299651e+000
1.088999999999999e-001	1.089000e-001	3.299628e+000
1.121999999999999e-001	1.122000e-001	3.299605e+000
1.154999999999999e-001	1.155000e-001	3.299581e+000
1.187999999999999e-001	1.188000e-001	3.299556e+000
1.220999999999999e-001	1.221000e-001	3.299531e+000
1.253999999999999e-001	1.254000e-001	3.299505e+000
1.286999999999999e-001	1.287000e-001	3.299478e+000
1.319999999999999e-001	1.320000e-001	3.299450e+000
1.352999999999999e-001	1.353000e-001	3.299421e+000
1.385999999999999e-001	1.386000e-001	3.299392e+000
1.418999999999999e-001	1.419000e-001	3.299362e+000
1.451999999999999e-001	1.452000e-001	3.299331e+000
1.484999999999999e-001	1.485000e-001	3.299300e+000
1.517999999999999e-001	1.518000e-001	3.299268e+000
1.550999999999999e-001	1.551000e-001	3.299235e+000
1.583999999999999e-001	1.584000e-001	3.299201e+000
1.616999999999999e-001	1.617000e-001	3.299167e+000
1.649999999999999e-001	1.650000e-001	3.299131e+000
1.682999999999999e-001	1.683000e-001	3.299095e+000
1.715999999999999e-001	1.716000e-001	3.299058e+000
1.748999999999999e-001	1.749000e-001	3.299021e+000
1.781999999999999e-001	1.782000e-001	3.298983e+000
1.814999999999999e-001	1.815000e-001	3.298943e+000
1.847999999999999e-001	1.848000e-001	3.298903e+000
1.880999999999999e-001	1.881000e-001	3.298863e+000
1.913999999999999e-001	1.914000e-001	3.298821e+000
1.946999999999999e-001	1.947000e-001	3.298779e+000
1.979999999999999e-001	1.980000e-001	3.298736e+000
2.012999999999999e-001	2.013000e-001	3.298692e+000
2.045999999999999e-001	2.046000e-001	3.298647e+000
2.078999999999999e-001	2.079000e-001	3.298602e+000
2.111999999999999e-001	2.112000e-001	3.298555e+000
2.144999999999999e-001	2.145000e-001	3.298508e+000
2.177999999999999e-001	2.178000e-001	3.298460e+000
2.210999999999999e-001	2.211000e-001	3.298412e+000
2.243999999999999e-001	2.244000e-001	3.298362e+000
2.276999999999999e-001	2.277000e-001	3.298312e+000
2.309999999999998e-001	2.310000e-001	3.298261e+000
2.342999999999998e-001	2.343000e-001	3.298209e+000
2.375999999999998e-001	2.376000e-001	3.298156e+000
2.408999999999998e-001	2.409000e-001	3.298102e+000
2.441999999999998e-001	2.442000e-001	3.298048e+000
2.474999999999998e-001	2.475000e-001	3.297992e+000
2.507999999999999e-001	2.508000e-001	3.297936e+000
2.540999999999999e-001	2.541000e-001	3.297879e+000
2.573999999999999e-001	2.574000e-001	3.297822e+000
2.606999999999999e-001	2.607000e-001	3.297763e+000
2.640000000000000e-001	2.640000e-001	3.297703e+000
2.673000000000000e-001	2.673000e-001	3.297643e+000
2.706000000000000e-001	2.706000e-001	3.297582e+000
2.739000000000000e-001	2.739000e-001	3.297520e+000
2.772000000000001e-001	2.772000e-001	3.297457e+000
2.805000000000001e-001	2.805000e-001	3.297393e+000
2.838000000000001e-001	2.838000e-001	3.297328e+000
2.871000000000001e-001	2.871000e-001	3.297263e+000
2.904000000000002e-001	2.904000e-001	3.297196e+000
2.937000000000002e-001	2.937000e-001	3.297129e+000
2.970000000000002e-001	2.970000e-001	3.297061e+000
3.003000000000002e-001	3.003000e-001	3.296992e+000
3.036000000000003e-001	3.036000e-001	3.296922e+000
3.069000000000003e-001	3.069000e-001	3.296851e+000
3.102000000000003e-001	3.102000e-001	3.296780e+000
3.135000000000003e-001	3.135000e-001	3.296707e+000
3.168000000000004e-001	3.168000e-001	3.296634e+000
3.201000000000004e-001	3.201000e-001	3.296559e+000
3.234000000000004e-001	3.234000e-001	3.296484e+000
3.267000000000004e-001	3.267000e-001	3.296408e+000
3.300000000000005e-001	3.300000e-001	3.296331e+000
3.333000000000005e-001	3.333000e-001	3.296253e+000
3.366000000000005e-001	3.366000e-001	3.296174e+000
3.399000000000005e-001	3.399000e-001	3.296094e+000
3.432000000000006e-001	3.432000e-001	3.296014e+000
3.465000000000006e-001	3.465000e-001	3.295932e+000
3.498000000000006e-001	3.498000e-001	3.295850e+000
3.531000000000006e-001	3.531000e-001	3.295766e+000
3.564000000000007e-001	3.564000e-001	3.295681e+000
3.597000000000007e-001	3.597000e-001	3.295596e+000
3.630000000000007e-001	3.630000e-001	3.295510e+000
3.663000000000007e-001	3.663000e-001	3.295423e+000
3.696000000000008e-001	3.696000e-001	3.295335e+000
3.729000000000008e-001	3.729000e-001	3.295245e+000
3.762000000000008e-001	3.762000e-001	3.295155e+000
3.795000000000008e-001	3.795000e-001	3.295064e+000
3.828000000000009e-001	3.828000e-001	3.294972e+000
3.861000000000009e-001	3.861000e-001	3.294879e+000
3.894000000000009e-001	3.894000e-001	3.294785e+000
3.927000000000009e-001	3.927000e-001	3.294691e+000
3.960000000000010e-001	3.960000e-001	3.294595e+000
3.993000000000010e-001	3.993000e-001	3.294498e+000
4.026000000000010e-001	4.026000e-001	3.294400e+000
4.059000000000010e-001	4.059000e-001	3.294302e+000
4.092000000000011e-001	4.092000e-001	3.294202e+000
4.125000000000011e-001	4.125000e-001	3.294101e+000
4.158000000000011e-001	4.158000e-001	3.293999e+000
4.191000000000011e-001	4.191000e-001	3.293896e+000
4.224000000000012e-001	4.224000e-001	3.293793e+000
4.257000000000012e-001	4.257000e-001	3.293688e+000
4.290000000000012e-001	4.290000e-001	3.293582e+000
4.323000000000012e-001	4.323000e-001	3.293476e+000
4.356000000000013e-001	4.356000e-001	3.293368e+000
4.389000000000013e-001	4.389000e-001	3.293259e+000
4.422000000000013e-001	4.422000e-001	3.293149e+000
4.455000000000013e-001	4.455000e-001	3.293039e+000
4.488000000000014e-001	4.488000e-001	3.292927e+000
4.521000000000014e-001	4.521000e-001	3.292814e+000
4.554000000000014e-001	4.554000e-001	3.292700e+000
4.587000000000014e-001	4.587000e-001	3.292585e+000
4.620000000000015e-001	4.620000e-001	3.292469e+000
4.653000000000015e-001	4.653000e-001	3.292352e+000
4.686000000000015e-001	4.686000e-001	3.292234e+000
4.719000000000015e-001	4.719000e-001	3.292115e+000
4.752000000000016e-001	4.752000e-001	3.291995e+000
4.785000000000016e-001	4.785000e-001	3.291873e+000
4.818000000000016e-001	4.818000e-001	3.291751e+000
4.851000000000016e-001	4.851000e-001	3.291628e+000
4.884000000000017e-001	4.884000e-001	3.291503e+000
4.917000000000017e-001	4.917000e-001	3.291378e+000
4.950000000000017e-001	4.950000e-001	3.291251e+000
4.983000000000017e-001	4.983000e-001	3.291123e+000
5.016000000000017e-001	5.016000e-001	3.290994e+000
5.049000000000017e-001	5.049000e-001	3.290864e+000
5.082000000000017e-001	5.082000e-001	3.290734e+000
5.115000000000016e-001	5.115000e-001	3.290601e+000
5.148000000000016e-001	5.148000e-001	3.290468e+000
5.181000000000016e-001	5.181000e-001	3.290334e+000
5.214000000000015e-001	5.214000e-001	3.290199e+000
5.247000000000015e-001	5.247000e-001	3.290062e+000
5.280000000000015e-001	5.280000e-001	3.289924e+000
5.313000000000014e-001	5.313000e-001	3.289786e+000
5.346000000000014e-001	5.346000e-001	3.289646e+000
5.379000000000014e-001	5.379000e-001	3.289505e+000
5.412000000000014e-001	5.412000e-001	3.289362e+000
5.445000000000013e-001	5.445000e-001	3.289219e+000
5.478000000000013e-001	5.478000e-001	3.289075e+000
5.511000000000013e-001	5.511000e-001	3.288929e+000
5.544000000000012e-001	5.544000e-001	3.288782e+000
5.577000000000012e-001	5.577000e-001	3.288634e+000
5.610000000000012e-001	5.610000e-001	3.288485e+000
5.643000000000011e-001	5.643000e-001	3.288335e+000
5.676000000000011e-001	5.676000e-001	3.288184e+000
5.709000000000011e-001	5.709000e-001	3.288031e+000
5.742000000000010e-001	5.742000e-001	3.287877e+000
5.775000000000010e-001	5.775000e-001	3.287722e+000
5.808000000000010e-001	5.808000e-001	3.287566e+000
5.841000000000010e-001	5.841000e-001	3.287409e+000
5.874000000000009e-001	5.874000e-001	3.287250e+000
5.907000000000009e-001	5.907000e-001	3.287090e+000
5.940000000000009e-001	5.940000e-001	3.286929e+000
5.973000000000008e-001	5.973000e-001	3.286767e+000
6.006000000000008e-001	6.006000e-001	3.286604e+000
6.039000000000008e-001	6.039000e-001	3.286439e+000
6.072000000000007e-001	6.072000e-001	3.286273e+000
6.105000000000007e-001	6.105000e-001	3.286106e+000
6.138000000000007e-001	6.138000e-001	3.285938e+000
6.171000000000007e-001	6.171000e-001	3.285768e+000
6.204000000000006e-001	6.204000e-001	3.285597e+000
6.237000000000006e-001	6.237000e-001	3.285425e+000
6.270000000000006e-001	6.270000e-001	3.285252e+000
6.303000000000005e-001	6.303000e-001	3.285077e+000
6.336000000000005e-001	6.336000e-001	3.284901e+000
6.369000000000005e-001	6.369000e-001	3.284724e+000
6.402000000000004e-001	6.402000e-001	3.284546e+000
6.435000000000004e-001	6.435000e-001	3.284366e+000
6.468000000000004e-001	6.468000e-001	3.284185e+000
6.501000000000003e-001	6.501000e-001	3.284003e+000
6.534000000000003e-001	6.534000e-001	3.283819e+000
6.567000000000003e-001	6.567000e-001	3.283634e+000
6.600000000000003e-001	6.600000e-001	3.283448e+000
6.633000000000002e-001	6.633000e-001	3.283261e+000
6.666000000000002e-001	6.666000e-001	3.283072e+000
6.699000000000002e-001	6.699000e-001	3.282881e+000
6.732000000000001e-001	6.732000e-001	3.282690e+000
6.765000000000001e-001	6.765000e-001	3.282497e+000
6.798000000000001e-001	6.798000e-001	3.282303e+000
6.831000000000000e-001	6.831000e-001	3.282107e+000
6.864000000000000e-001	6.864000e-001	3.281911e+000
6.897000000000000e-001	6.897000e-001	3.281712e+000
6.930000000000000e-001	6.930000e-001	3.281513e+000
6.962999999999999e-001	6.963000e-001	3.281312e+000
6.995999999999999e-001	6.996000e-001	3.281110e+000
7.028999999999999e-001	7.029000e-001	3.280906e+000
7.061999999999998e-001	7.062000e-001	3.280701e+000
7.094999999999998e-001	7.095000e-001	3.280494e+000
7.127999999999998e-001	7.128000e-001	3.280286e+000
7.160999999999997e-001	7.161000e-001	3.280077e+000
7.193999999999997e-001	7.194000e-001	3.279866e+000
7.226999999999997e-001	7.227000e-001	3.279654e+000
7.259999999999997e-001	7.260000e-001	3.279441e+000
7.292999999999996e-001	7.293000e-001	3.279226e+000
7.325999999999996e-001	7.326000e-001	3.279010e+000
7.358999999999996e-001	7.359000e-001	3.278792e+000
7.391999999999995e-001	7.392000e-001	3.278573e+000
7.424999999999995e-001	7.425000e-001	3.278352e+000
7.457999999999995e-001	7.458000e-001	3.278130e+000
7.490999999999994e-001	7.491000e-001	3.277906e+000
7.523999999999994e-001	7.524000e-001	3.277681e+000
7.556999999999994e-001	7.557000e-001	3.277454e+000
7.589999999999993e-001	7.590000e-001	3.277226e+000
7.622999999999993e-001	7.623000e-001	3.276997e+000
7.655999999999993e-001	7.656000e-001	3.276766e+000
7.688999999999993e-001	7.689000e-001	3.276533e+000
7.721999999999992e-001	7.722000e-001	3.276299e+000
7.754999999999992e-001	7.755000e-001	3.276064e+000
7.787999999999992e-001	7.788000e-001	3.275827e+000
7.820999999999991e-001	7.821000e-001	3.275588e+000
7.853999999999991e-001	7.854000e-001	3.275348e+000
7.886999999999991e-001	7.887000e-001	3.275106e+000
7.919999999999990e-001	7.920000e-001	3.274863e+000
7.952999999999990e-001	7.953000e-001	3.274619e+000
7.985999999999990e-001	7.986000e-001	3.274372e+000
8.018999999999990e-001	8.019000e-001	3.274125e+000
8.051999999999989e-001	8.052000e-001	3.273875e+000
8.084999999999989e-001	8.085000e-001	3.273624e+000
8.117999999999989e-001	8.118000e-001	3.273372e+000
8.150999999999988e-001	8.151000e-001	3.273118e+000
8.183999999999988e-001	8.184000e-001	3.272862e+000
8.216999999999988e-001	8.217000e-001	3.272604e+000
8.249999999999987e-001	8.250000e-001	3.272345e+000
8.282999999999987e-001	8.283000e-001	3.272085e+000
8.315999999999987e-001	8.316000e-001	3.271822e+000
8.348999999999986e-001	8.349000e-001	3.271559e+000
8.381999999999986e-001	8.382000e-001	3.271293e+000
8.414999999999986e-001	8.415000e-001	3.271026e+000
8.447999999999986e-001	8.448000e-001	3.270757e+000
8.480999999999985e-001	8.481000e-001	3.270487e+000
8.513999999999985e-001	8.514000e-001	3.270215e+000
8.546999999999985e-001	8.547000e-001	3.269941e+000
8.579999999999984e-001	8.580000e-001	3.269665e+000
8.612999999999984e-001	8.613000e-001	3.269388e+000
8.645999999999984e-001	8.646000e-001	3.269109e+000
8.678999999999983e-001	8.679000e-001	3.268829e+000
8.711999999999983e-001	8.712000e-001	3.268547e+000
8.744999999999983e-001	8.745000e-001	3.268263e+000
8.777999999999983e-001	8.778000e-001	3.267977e+000
8.810999999999982e-001	8.811000e-001	3.267689e+000
8.843999999999982e-001	8.844000e-001	3.267400e+000
8.876999999999982e-001	8.877000e-001	3.267109e+000
8.909999999999981e-001	8.910000e-001	3.266817e+000
8.942999999999981e-001	8.943000e-001	3.266522e+000
8.975999999999981e-001	8.976000e-001	3.266226e+000
9.008999999999980e-001	9.009000e-001	3.265928e+000
9.041999999999980e-001	9.042000e-001	3.265628e+000
9.074999999999980e-001	9.075000e-001	3.265326e+000
9.107999999999979e-001	9.108000e-001	3.265023e+000
9.140999999999979e-001	9.141000e-001	3.264717e+000
9.173999999999979e-001	9.174000e-001	3.264410e+000
9.206999999999979e-001	9.207000e-001	3.264102e+000
9.239999999999978e-001	9.240000e-001	3.263791e+000
9.272999999999978e-001	9.273000e-001	3.263478e+000
9.305999999999978e-001	9.306000e-001	3.263164e+000
9.338999999999977e-001	9.339000e-001	3.262847e+000
9.371999999999977e-001	9.372000e-001	3.262529e+000
9.404999999999977e-001	9.405000e-001	3.262209e+000
9.437999999999976e-001	9.438000e-001	3.261887e+000
9.470999999999976e-001	9.471000e-001	3.261563e+000
9.503999999999976e-001	9.504000e-001	3.261237e+000
9.536999999999976e-001	9.537000e-001	3.260909e+000
9.569999999999975e-001	9.570000e-001	3.260580e+000
9.602999999999975e-001	9.603000e-001	3.260248e+000
9.635999999999975e-001	9.636000e-001	3.259914e+000
9.668999999999974e-001	9.669000e-001	3.259579e+000
9.701999999999974e-001	9.702000e-001	3.259241e+000
9.734999999999974e-001	9.735000e-001	3.258902e+000
9.767999999999973e-001	9.768000e-001	3.258560e+000
9.800999999999973e-001	9.801000e-001	3.258217e+000
9.833999999999973e-001	9.834000e-001	3.257871e+000
9.866999999999973e-001	9.867000e-001	3.257524e+000
9.899999999999972e-001	9.900000e-001	3.257174e+000
9.932999999999972e-001	9.933000e-001	3.256823e+000
9.965999999999972e-001	9.966000e-001	3.256469e+000
9.998999999999971e-001	9.999000e-001	3.256114e+000
1.003199999999997e+000	1.003200e+000	3.255756e+000
1.006499999999997e+000	1.006500e+000	3.255396e+000
1.009799999999997e+000	1.009800e+000	3.255034e+000
1.013099999999997e+000	1.013100e+000	3.254670e+000
1.016399999999998e+000	1.016400e+000	3.254304e+000
1.019699999999998e+000	1.019700e+000	3.253936e+000
1.022999999999998e+000	1.023000e+000	3.253566e+000
1.026299999999998e+000	1.026300e+000	3.253193e+000
1.029599999999998e+000	1.029600e+000	3.252818e+000
1.032899999999998e+000	1.032900e+000	3.252442e+000
1.036199999999998e+000	1.036200e+000	3.252063e+000
1.039499999999998e+000	1.039500e+000	3.251682e+000
1.042799999999998e+000	1.042800e+000	3.251298e+000
1.046099999999998e+000	1.046100e+000	3.250913e+000
1.049399999999998e+000	1.049400e+000	3.250525e+000
1.052699999999998e+000	1.052700e+000	3.250135e+000
1.055999999999999e+000	1.056000e+000	3.249743e+000
1.059299999999999e+000	1.059300e+000	3.249349e+000
1.062599999999999e+000	1.062600e+000	3.248952e+000
1.065899999999999e+000	1.065900e+000	3.248553e+000
1.069199999999999e+000	1.069200e+000	3.248152e+000
1.072499999999999e+000	1.072500e+000	3.247748e+000
1.075799999999999e+000	1.075800e+000	3.247342e+000
1.079099999999999e+000	1.079100e+000	3.246934e+000
1.082399999999999e+000	1.082400e+000	3.246524e+000
1.085699999999999e+000	1.085700e+000	3.246111e+000
1.088999999999999e+000	1.089000e+000	3.245696e+000
1.092299999999999e+000	1.092300e+000	3.245278e+000
1.095600000000000e+000	1.095600e+000	3.244858e+000
1.098900000000000e+000	1.098900e+000	3.244436e+000
1.102200000000000e+000	1.102200e+000	3.244011e+000
1.105500000000000e+000	1.105500e+000	3.243584e+000
1.108800000000000e+000	1.108800e+000	3.243155e+000
1.112100000000000e+000	1.112100e+000	3.242723e+000
1.115400000000000e+000	1.115400e+000	3.242288e+000
1.118700000000000e+000	1.118700e+000	3.241851e+000
1.122000000000000e+000	1.122000e+000	3.241412e+000
1.125300000000000e+000	1.125300e+000	3.240970e+000
1.128600000000000e+000	1.128600e+000	3.240525e+000
1.131900000000000e+000	1.131900e+000	3.240079e+000
1.135200000000000e+000	1.135200e+000	3.239629e+000
1.138500000000001e+000	1.138500e+000	3.239177e+000
1.141800000000001e+000	1.141800e+000	3.238723e+000
1.145100000000001e+000	1.145100e+000	3.238266e+000
1.148400000000001e+000	1.148400e+000	3.237806e+000
1.151700000000001e+000	1.151700e+000	3.237344e+000
1.155000000000001e+000	1.155000e+000	3.236879e+000
1.158300000000001e+000	1.158300e+000	3.236411e+000
1.161600000000001e+000	1.161600e+000	3.235941e+000
1.164900000000001e+000	1.164900e+000	3.235468e+000
1.168200000000001e+000	1.168200e+000	3.234993e+000
1.171500000000001e+000	1.171500e+000	3.234514e+000
1.174800000000001e+000	1.174800e+000	3.234034e+000
1.178100000000002e+000	1.178100e+000	3.233550e+000
1.181400000000002e+000	1.181400e+000	3.233064e+000
1.184700000000002e+000	1.184700e+000	3.232575e+000
1.188000000000002e+000	1.188000e+000	3.232083e+000
1.191300000000002e+000	1.191300e+000	3.231588e+000
1.194600000000002e+000	1.194600e+000	3.231091e+000
1.197900000000002e+000	1.197900e+000	3.230591e+000
1.201200000000002e+000	1.201200e+000	3.230088e+000
1.204500000000002e+000	1.204500e+000	3.229582e+000
1.207800000000002e+000	1.207800e+000	3.229073e+000
1.211100000000002e+000	1.211100e+000	3.228561e+000
1.214400000000002e+000	1.214400e+000	3.228047e+000
1.217700000000002e+000	1.217700e+000	3.227529e+000
1.221000000000003e+000	1.221000e+000	3.227009e+000
1.224300000000003e+000	1.224300e+000	3.226486e+000
1.227600000000003e+000	1.227600e+000	3.225960e+000
1.230900000000003e+000	1.230900e+000	3.225430e+000
1.234200000000003e+000	1.234200e+000	3.224898e+000
1.237500000000003e+000	1.237500e+000	3.224363e+000
1.240800000000003e+000	1.240800e+000	3.223825e+000
1.244100000000003e+000	1.244100e+000	3.223284e+000
1.247400000000003e+000	1.247400e+000	3.222739e+000
1.250700000000003e+000	1.250700e+000	3.222192e+000
1.254000000000003e+000	1.254000e+000	3.221641e+000
1.257300000000003e+000	1.257300e+000	3.221088e+000
1.260600000000004e+000	1.260600e+000	3.220531e+000
